Circuit: * D:\Projects\PFETchar1.asc

Direct Newton iteration failed to find .op point.  (Use ".option noopiter" to skip.)
Starting Gmin stepping
Gmin = 10
vernier = 0.5
Gmin = 2.07126
vernier = 0.666667
vernier = 0.333333
vernier = 0.166667
Gmin = 1.23556
vernier = 0.0833333
vernier = 0.0416667
vernier = 0.0555555
vernier = 0.0277778
Gmin = 1.17317
vernier = 0.0138889
vernier = 0.0185185
vernier = 0.00925925
vernier = 0.00462963
Gmin = 1.1477
vernier = 0.00617283
Gmin = 1.13231
vernier = 0.00823044
vernier = 0.00411522
vernier = 0.00205761
Gmin = 1.11843
vernier = 0.00274348
Gmin = 1.11155
vernier = 0.00365797
vernier = 0.0048773
vernier = 0.00243865
Gmin = 1.10278
vernier = 0.00121932
vernier = 0.00162576
Gmin = 1.09932
vernier = 0.00216769
vernier = 0.00289025
Gmin = 1.09328
vernier = 0.00144512
vernier = 0.000722562
Gmin = 1.09012
vernier = 0.000963415
vernier = 0.00128455
Gmin = 1.0873
vernier = 0.00171274
vernier = 0.00228365
Gmin = 1.08285
vernier = 0.00114182
vernier = 0.000570912
vernier = 0.000761216
Gmin = 1.08208
vernier = 0.00101495
vernier = 0.00135327
Gmin = 1.07945
vernier = 0.00180436
vernier = 0.000902182
vernier = 0.000451091
Gmin = 1.07738
vernier = 0.000601454
vernier = 0.000801939
Gmin = 1.07583
vernier = 0.00106925
Gmin = 1.07332
vernier = 0.00142567
vernier = 0.000712834
vernier = 0.000534626
vernier = 0.000712834
Gmin = 1.07213
vernier = 0.000950445
Gmin = 1.0699
vernier = 0.00126726
vernier = 0.00063363
vernier = 0.000475222
vernier = 0.00063363
Gmin = 1.06884
vernier = 0.000844839
Gmin = 1.06687
vernier = 0.00112645
vernier = 0.000563226
vernier = 0.00042242
vernier = 0.000563226
Gmin = 1.06593
vernier = 0.000750968
Gmin = 1.06418
vernier = 0.000563226
vernier = 0.000422419
vernier = 0.000563226
Gmin = 1.06337
vernier = 0.000750967
vernier = 0.000563226
vernier = 0.000422419
Gmin = 1.06247
vernier = 0.000563225
vernier = 0.000750967
vernier = 0.000563225
vernier = 0.000422419
Gmin = 1.06146
vernier = 0.000563225
Gmin = 1.06015
vernier = 0.000750967
vernier = 0.000563225
vernier = 0.000422419
vernier = 0.000563225
Gmin = 1.0593
vernier = 0.000422419
Gmin = 0
Gmin stepping failed

Starting source stepping with srcstepmethod=0
Source Step = 3.0303%
Source Step = 33.3333%
Source Step = 63.6364%
Source Step = 93.9394%
Source stepping succeeded in finding the operating point.

Semiconductor Device Operating Points:
                        --- Diodes ---
Name:    d:u4:8      d:u4:6      d:u4:7      d:u4:5      d:u4:18
Model:    u4:db      u4:dnc      u4:dnc       u4:dn       u4:dy
Id:     -3.00e-11    8.85e-11    8.85e-11    8.85e-11   -2.92e-11
Vd:     -3.00e+01    2.35e-01    2.35e-01    2.35e-01   -2.92e+01
Req:     1.00e+12    2.93e+08    2.93e+08    2.93e+08    1.00e+12
CAP:     0.00e+00    0.00e+00    0.00e+00    0.00e+00    0.00e+00

Name:    d:u4:16     d:u4:14     d:u4:13     d:u4:20     d:u4:19
Model:    u4:dy       u4:dx       u4:dx       u4:dx       u4:dx
Id:     -6.71e-02   -1.09e-09    5.92e+04   -1.70e-09   -1.26e-09
Vd:     -5.05e+01   -1.09e+03    1.18e+00   -1.70e+03   -1.26e+03
Req:     3.85e-01    1.00e+12    4.37e-07    1.00e+12    1.00e+12
CAP:     0.00e+00    0.00e+00    0.00e+00    0.00e+00    0.00e+00

Name:    d:u4:15     d:u4:17     d:u4:10     d:u4:12     d:u4:11
Model:    u4:dx       u4:dx       u4:dx       u4:dx       u4:dx
Id:     -2.05e-11    6.71e-02   -8.21e-08   -2.29e-08   -8.21e-08
Vd:     -2.05e+01    8.23e-01   -8.21e+04   -2.29e+04   -8.21e+04
Req:     1.00e+12    3.85e-01    1.00e+12    1.00e+12    1.00e+12
CAP:     0.00e+00    0.00e+00    0.00e+00    0.00e+00    0.00e+00

Name:    d:u4:9      d:u4:4      d:u4:2      d:u4:3      d:u4:1
Model:    u4:dx       u4:dx       u4:dx       u4:dx       u4:dx
Id:     -2.29e-08   -1.24e-11   -1.50e-11   -1.76e-11   -1.50e-11
Vd:     -2.29e+04   -1.24e+01   -1.50e+01   -1.76e+01   -1.50e+01
Req:     1.00e+12    1.00e+12    1.00e+12    1.00e+12    1.00e+12
CAP:     0.00e+00    0.00e+00    0.00e+00    0.00e+00    0.00e+00

Name:    d:u1:8      d:u1:6      d:u1:7      d:u1:5      d:u1:18
Model:    u1:db      u1:dnc      u1:dnc       u1:dn       u1:dy
Id:     -3.00e-11    8.85e-11    8.85e-11    8.85e-11   -6.74e-02
Vd:     -3.00e+01    2.35e-01    2.35e-01    2.35e-01   -5.05e+01
Req:     1.00e+12    2.93e+08    2.93e+08    2.93e+08    3.84e-01
CAP:     0.00e+00    0.00e+00    0.00e+00    0.00e+00    0.00e+00

Name:    d:u1:16     d:u1:14     d:u1:13     d:u1:20     d:u1:19
Model:    u1:dy       u1:dx       u1:dx       u1:dx       u1:dx
Id:     -2.92e-11    1.05e+05   -1.09e-09   -2.65e-10   -2.24e-09
Vd:     -2.92e+01    1.19e+00   -1.09e+03   -2.65e+02   -2.24e+03
Req:     1.00e+12    2.46e-07    1.00e+12    1.00e+12    1.00e+12
CAP:     0.00e+00    0.00e+00    0.00e+00    0.00e+00    0.00e+00

Name:    d:u1:15     d:u1:17     d:u1:10     d:u1:12     d:u1:11
Model:    u1:dx       u1:dx       u1:dx       u1:dx       u1:dx
Id:      6.74e-02   -2.05e-11    3.83e+04   -1.05e-07    3.83e+04
Vd:      8.24e-01   -2.05e+01    1.17e+00   -1.05e+05    1.17e+00
Req:     3.84e-01    1.00e+12    6.76e-07    1.00e+12    6.76e-07
CAP:     0.00e+00    0.00e+00    0.00e+00    0.00e+00    0.00e+00

Name:    d:u1:9      d:u1:4      d:u1:2      d:u1:3      d:u1:1
Model:    u1:dx       u1:dx       u1:dx       u1:dx       u1:dx
Id:     -1.05e-07   -1.62e-11   -9.97e-12   -1.38e-11   -2.00e-11
Vd:     -1.05e+05   -1.62e+01   -9.97e+00   -1.38e+01   -2.00e+01
Req:     1.00e+12    1.00e+12    1.00e+12    1.00e+12    1.00e+12
CAP:     0.00e+00    0.00e+00    0.00e+00    0.00e+00    0.00e+00

                        --- Bipolar Transistors ---
Name:       q3          q1
Model:    ksa1220     ksc2690
Ib:      -1.35e-01    1.34e-01
Ic:      -2.32e+00    2.32e+00
Vbe:     -1.32e+00    1.35e+00
Vbc:      8.65e+00   -2.42e+00
Vce:     -9.97e+00    3.77e+00
BetaDC:   1.72e+01    1.73e+01
Gm:       5.22e+01    5.02e+01
Rpi:      5.63e-01    2.51e-01
Rx:       3.62e-01    2.23e+00
Ro:       2.93e-02    2.73e-02
Cbe:      6.34e-10    7.48e-10
Cbc:      1.26e-10    7.29e-11
Cjs:      0.00e+00    0.00e+00
BetaAC:   2.94e+01    1.26e+01
Cbx:      1.34e-10    9.52e-11
Ft:       9.29e+09    8.69e+09



Date: Wed May 30 17:06:07 2018
Total elapsed time: 3.340 seconds.

tnom = 27
temp = 27
method = trap
totiter = 18408
traniter = 0
tranpoints = 0
accept = 0
rejected = 0
matrix size = 146
fillins = 223
solver = Normal
Thread vector: 17.8/9.3[4] 0.0/0.0[0] 2.8/2.8[1] 0.5/1.1[1]  2592/500
Matrix Compiler1: 14.59 KB object code size
Matrix Compiler2: 14.30 KB object code size  1.8/2.5/[0.8]


